
T2EC8 000:646 SEGGER J-Link V4.86b Log File (0002ms, 0273ms total)
T2EC8 000:646 DLL Compiled: Jun 27 2014 20:11:00 (0002ms, 0273ms total)
T2EC8 000:646 Logging started @ 2020-07-11 15:37 (0002ms, 0273ms total)
T2EC8 000:648 JLINK_SetWarnOutHandler(...) (0000ms, 0273ms total)
T2EC8 000:648 JLINK_OpenEx(...)
Firmware: J-Link V9 compiled Dec 16 2016 15:34:10
Hardware: V9.60
S/N: 63660148
Feature(s): RDI, GDB, FlashDL, FlashBP, JFlash  returns O.K. (0278ms, 0551ms total)
T2EC8 000:926 JLINK_SetErrorOutHandler(...) (0001ms, 0552ms total)
T2EC8 000:927 JLINK_ExecCommand("ProjectFile = "E:\work\myself\VMD\code\VendMotorDir_V2\VendMotorDir_V2-2\USER\JLinkSettings.ini"", ...)Device "CORTEX-M3" selected (0 KB flash, 0 KB RAM).  returns 0x00 (0009ms, 0561ms total)
T2EC8 000:941 JLINK_ExecCommand("Device = STM32F103VB", ...)Device "CORTEX-M3" selected (0 KB flash, 0 KB RAM).  returns 0x00 (0006ms, 0567ms total)
T2EC8 000:947 JLINK_ExecCommand("DisableConnectionTimeout", ...)  returns 0x01 (0000ms, 0567ms total)
T2EC8 000:947 JLINK_GetHardwareVersion()  returns 0x17700 (0000ms, 0567ms total)
T2EC8 000:947 JLINK_GetDLLVersion()  returns 48602 (0000ms, 0567ms total)
T2EC8 000:947 JLINK_GetFirmwareString(...) (0000ms, 0567ms total)
T2EC8 000:991 JLINK_GetDLLVersion()  returns 48602 (0000ms, 0567ms total)
T2EC8 000:991 JLINK_GetCompileDateTime() (0000ms, 0567ms total)
T2EC8 001:000 JLINK_GetFirmwareString(...) (0000ms, 0567ms total)
T2EC8 001:004 JLINK_GetHardwareVersion()  returns 0x17700 (0000ms, 0567ms total)
T2EC8 001:014 JLINK_TIF_Select(JLINKARM_TIF_SWD)  returns 0x00 (0001ms, 0568ms total)
T2EC8 001:015 JLINK_SetSpeed(5000) (0000ms, 0568ms total)
T2EC8 001:015 JLINK_GetId() >0x108 TIF>Found SWD-DP with ID 0x1BA01477 >0x0D TIF> >0x21 TIF> >0x0D TIF> >0x28 TIF> >0x0D TIF> >0x28 TIF> >0x0D TIF> >0x21 TIF> >0x0D TIF> >0x28 TIF> >0x0D TIF> >0x21 TIF> >0x0D TIF> >0x21 TIF> >0x0D TIF> >0x21 TIF> >0x0D TIF> >0x21 TIF> >0x0D TIF> >0x28 TIF> >0x0D TIF> >0x28 TIF> >0x0D TIF> >0x21 TIF> >0x0D TIF> >0x28 TIF> >0x0D TIF> >0x28 TIF> >0x0D TIF> >0x28 TIF> >0x0D TIF> >0x21 TIF> >0x0D TIF> >0x21 TIF> >0x0D TIF> >0x28 TIF> >0x0D TIF> >0x21 TIF> >0x0D TIF>
 >0x21 TIF>Found Cortex-M3 r1p1, Little endian. -- CPU_WriteMem(4 bytes @ 0xE0002000) -- CPU_ReadMem(4 bytes @ 0xE000EDF0) -- CPU_ReadMem(4 bytes @ 0xE0002000)FPUnit: 6 code (BP) slots and 2 literal slots -- CPU_ReadMem(4 bytes @ 0xE000EDFC) -- CPU_ReadMem(4 bytes @ 0xE0001000) -- CPU_WriteMem(4 bytes @ 0xE0001000) -- CPU_ReadMem(4 bytes @ 0xE00FF010)TPIU fitted. -- CPU_ReadMem(4 bytes @ 0xE00FF014) -- CPU_ReadMem(4 bytes @ 0xE00FF018) >0x0D TIF> >0x21 TIF>  returns 0x1BA01477 (0021ms, 0589ms total)
T2EC8 001:036 JLINK_GetDLLVersion()  returns 48602 (0000ms, 0589ms total)
T2EC8 001:036 JLINK_CORE_GetFound()  returns 0x30000FF (0001ms, 0590ms total)
T2EC8 001:039 JLINK_ReadMem (0xE00FF000, 0x0020 Bytes, ...) -- CPU is running -- CPU_ReadMem(32 bytes @ 0xE00FF000) - Data: 03 F0 F0 FF 03 20 F0 FF 03 30 F0 FF 03 10 F0 FF ...  returns 0x00 (0000ms, 0590ms total)
T2EC8 001:039 JLINK_ReadMem (0xE000EFF0, 0x0010 Bytes, ...) -- CPU is running -- CPU_ReadMem(16 bytes @ 0xE000EFF0) - Data: 0D 00 00 00 E0 00 00 00 05 00 00 00 B1 00 00 00  returns 0x00 (0000ms, 0590ms total)
T2EC8 001:039 JLINK_ReadMem (0xE000EFD0, 0x0020 Bytes, ...) -- CPU is running -- CPU_ReadMem(32 bytes @ 0xE000EFD0) - Data: 04 00 00 00 00 00 00 00 00 00 00 00 00 00 00 00 ...  returns 0x00 (0001ms, 0591ms total)
T2EC8 001:040 JLINK_ReadMem (0xE0001FF0, 0x0010 Bytes, ...) -- CPU is running -- CPU_ReadMem(16 bytes @ 0xE0001FF0) - Data: 0D 00 00 00 E0 00 00 00 05 00 00 00 B1 00 00 00  returns 0x00 (0000ms, 0591ms total)
T2EC8 001:040 JLINK_ReadMem (0xE0001FD0, 0x0020 Bytes, ...) -- CPU is running -- CPU_ReadMem(32 bytes @ 0xE0001FD0) - Data: 04 00 00 00 00 00 00 00 00 00 00 00 00 00 00 00 ...  returns 0x00 (0000ms, 0591ms total)
T2EC8 001:040 JLINK_ReadMem (0xE0002FF0, 0x0010 Bytes, ...) -- CPU is running -- CPU_ReadMem(16 bytes @ 0xE0002FF0) - Data: 0D 00 00 00 E0 00 00 00 05 00 00 00 B1 00 00 00  returns 0x00 (0001ms, 0592ms total)
T2EC8 001:041 JLINK_ReadMem (0xE0002FD0, 0x0020 Bytes, ...) -- CPU is running -- CPU_ReadMem(32 bytes @ 0xE0002FD0) - Data: 04 00 00 00 00 00 00 00 00 00 00 00 00 00 00 00 ...  returns 0x00 (0000ms, 0592ms total)
T2EC8 001:041 JLINK_ReadMem (0xE0000FF0, 0x0010 Bytes, ...) -- CPU is running -- CPU_ReadMem(16 bytes @ 0xE0000FF0) - Data: 0D 00 00 00 E0 00 00 00 05 00 00 00 B1 00 00 00  returns 0x00 (0001ms, 0593ms total)
T2EC8 001:042 JLINK_ReadMem (0xE0000FD0, 0x0020 Bytes, ...) -- CPU is running -- CPU_ReadMem(32 bytes @ 0xE0000FD0) - Data: 04 00 00 00 00 00 00 00 00 00 00 00 00 00 00 00 ...  returns 0x00 (0000ms, 0593ms total)
T2EC8 001:042 JLINK_ReadMem (0xE0040FF0, 0x0010 Bytes, ...) -- CPU is running -- CPU_ReadMem(16 bytes @ 0xE0040FF0) - Data: 0D 00 00 00 90 00 00 00 05 00 00 00 B1 00 00 00  returns 0x00 (0001ms, 0594ms total)
T2EC8 001:043 JLINK_ReadMem (0xE0040FD0, 0x0020 Bytes, ...) -- CPU is running -- CPU_ReadMem(32 bytes @ 0xE0040FD0) - Data: 04 00 00 00 00 00 00 00 00 00 00 00 00 00 00 00 ...  returns 0x00 (0001ms, 0595ms total)
T2EC8 001:044 JLINK_ReadMemU32(0xE000ED00, 0x0001 Items, ...) -- CPU is running -- CPU_ReadMem(4 bytes @ 0xE000ED00) - Data: 31 C2 1F 41  returns 0x01 (0000ms, 0595ms total)
T2EC8 001:044 JLINK_SetResetType(JLINKARM_RESET_TYPE_NORMAL)  returns JLINKARM_RESET_TYPE_NORMAL (0000ms, 0595ms total)
T2EC8 001:044 JLINK_Reset() -- CPU is running -- CPU_WriteMem(4 bytes @ 0xE000EDF0) -- CPU is running -- CPU_WriteMem(4 bytes @ 0xE000EDFC) >0x35 TIF> -- CPU is running -- CPU_WriteMem(4 bytes @ 0xE000ED0C) -- CPU is running -- CPU_ReadMem(4 bytes @ 0xE000EDF0) -- CPU is running -- CPU_ReadMem(4 bytes @ 0xE000EDF0) -- CPU is running -- CPU_WriteMem(4 bytes @ 0xE000EDF0) -- CPU is running -- CPU_WriteMem(4 bytes @ 0xE000EDFC) -- CPU is running -- CPU_ReadMem(4 bytes @ 0xE000EDF0)
 -- CPU_WriteMem(4 bytes @ 0xE0002000) -- CPU_ReadMem(4 bytes @ 0xE000EDFC) -- CPU_ReadMem(4 bytes @ 0xE0001000) (0015ms, 0610ms total)
T2EC8 001:059 JLINK_Halt()  returns 0x00 (0000ms, 0610ms total)
T2EC8 001:059 JLINK_IsHalted()  returns TRUE (0000ms, 0610ms total)
T2EC8 001:059 JLINK_ReadMemU32(0xE000EDF0, 0x0001 Items, ...) -- CPU_ReadMem(4 bytes @ 0xE000EDF0) - Data: 03 00 03 00  returns 0x01 (0000ms, 0610ms total)
T2EC8 001:059 JLINK_WriteU32(0xE000EDF0, 0xA05F0003) -- CPU_WriteMem(4 bytes @ 0xE000EDF0)  returns 0x00 (0001ms, 0611ms total)
T2EC8 001:060 JLINK_WriteU32(0xE000EDFC, 0x01000000) -- CPU_WriteMem(4 bytes @ 0xE000EDFC)  returns 0x00 (0000ms, 0611ms total)
T2EC8 001:080 JLINK_GetHWStatus(...)  returns 0x00 (0000ms, 0611ms total)
T2EC8 001:087 JLINK_GetNumBPUnits(Type = 0xFFFFFF00)  returns 0x06 (0000ms, 0611ms total)
T2EC8 001:087 JLINK_GetNumBPUnits(Type = 0xF0)  returns 0x2000 (0000ms, 0611ms total)
T2EC8 001:087 JLINK_GetNumWPUnits()  returns 0x04 (0000ms, 0611ms total)
T2EC8 001:091 JLINK_GetSpeed()  returns 0xFA0 (0000ms, 0611ms total)
T2EC8 001:099 JLINK_ReadMemU32(0xE000E004, 0x0001 Items, ...) -- CPU_ReadMem(4 bytes @ 0xE000E004) - Data: 01 00 00 00  returns 0x01 (0000ms, 0611ms total)
T2EC8 001:099 JLINK_ReadMemU32(0xE000E004, 0x0001 Items, ...) -- CPU_ReadMem(4 bytes @ 0xE000E004) - Data: 01 00 00 00  returns 0x01 (0001ms, 0612ms total)
T2EC8 001:100 JLINK_WriteMem(0xE0001000, 0x001C Bytes, ...) - Data: 01 00 00 00 00 00 00 00 00 00 00 00 00 00 00 00 ... -- CPU_WriteMem(28 bytes @ 0xE0001000)  returns 0x1C (0000ms, 0612ms total)
T2EC8 001:100 JLINK_ReadMem (0xE0001000, 0x001C Bytes, ...) -- CPU_ReadMem(28 bytes @ 0xE0001000) - Data: 01 00 00 40 00 00 00 00 00 00 00 00 00 00 00 00 ...  returns 0x00 (0000ms, 0612ms total)
T2EC8 001:100 JLINK_Halt()  returns 0x00 (0000ms, 0612ms total)
T2EC8 001:100 JLINK_IsHalted()  returns TRUE (0000ms, 0612ms total)
T2EC8 001:101 JLINK_WriteMem(0x20000000, 0x0164 Bytes, ...) - Data: 00 BE 0A E0 0D 78 2D 06 68 40 08 24 40 00 00 D3 ... -- CPU_WriteMem(356 bytes @ 0x20000000)  returns 0x164 (0002ms, 0614ms total)
T2EC8 001:103 JLINK_WriteReg(R0, 0x08000000)  returns 0x00 (0000ms, 0614ms total)
T2EC8 001:103 JLINK_WriteReg(R1, 0x007A1200)  returns 0x00 (0000ms, 0614ms total)
T2EC8 001:103 JLINK_WriteReg(R2, 0x00000001)  returns 0x00 (0000ms, 0614ms total)
T2EC8 001:103 JLINK_WriteReg(R3, 0x00000000)  returns 0x00 (0000ms, 0614ms total)
T2EC8 001:103 JLINK_WriteReg(R4, 0x00000000)  returns 0x00 (0000ms, 0614ms total)
T2EC8 001:103 JLINK_WriteReg(R5, 0x00000000)  returns 0x00 (0000ms, 0614ms total)
T2EC8 001:103 JLINK_WriteReg(R6, 0x00000000)  returns 0x00 (0000ms, 0614ms total)
T2EC8 001:103 JLINK_WriteReg(R7, 0x00000000)  returns 0x00 (0000ms, 0614ms total)
T2EC8 001:103 JLINK_WriteReg(R8, 0x00000000)  returns 0x00 (0000ms, 0614ms total)
T2EC8 001:103 JLINK_WriteReg(R9, 0x20000160)  returns 0x00 (0000ms, 0614ms total)
T2EC8 001:103 JLINK_WriteReg(R10, 0x00000000)  returns 0x00 (0000ms, 0614ms total)
T2EC8 001:103 JLINK_WriteReg(R11, 0x00000000)  returns 0x00 (0000ms, 0614ms total)
T2EC8 001:103 JLINK_WriteReg(R12, 0x00000000)  returns 0x00 (0000ms, 0614ms total)
T2EC8 001:103 JLINK_WriteReg(R13 (SP), 0x20000800)  returns 0x00 (0000ms, 0614ms total)
T2EC8 001:103 JLINK_WriteReg(R14, 0x20000001)  returns 0x00 (0000ms, 0614ms total)
T2EC8 001:103 JLINK_WriteReg(R15 (PC), 0x20000038)  returns 0x00 (0000ms, 0614ms total)
T2EC8 001:103 JLINK_WriteReg(XPSR, 0x01000000)  returns 0x00 (0000ms, 0614ms total)
T2EC8 001:103 JLINK_WriteReg(MSP, 0x20000800)  returns 0x00 (0000ms, 0614ms total)
T2EC8 001:103 JLINK_WriteReg(PSP, 0x20000800)  returns 0x00 (0000ms, 0614ms total)
T2EC8 001:103 JLINK_WriteReg(CFBP, 0x00000000)  returns 0x00 (0001ms, 0615ms total)
T2EC8 001:104 JLINK_SetBPEx(Addr = 0x20000000, Type = 0xFFFFFFF2) -- CPU_ReadMem(4 bytes @ 0x20000000) -- CPU_WriteMem(4 bytes @ 0x20000000) -- CPU_ReadMem(4 bytes @ 0x20000000) -- CPU_WriteMem(4 bytes @ 0x20000000) -- CPU_ReadMem(2 bytes @ 0x20000000)  returns 0x00000001 (0001ms, 0616ms total)
T2EC8 001:105 JLINK_Go() -- CPU_WriteMem(2 bytes @ 0x20000000) -- CPU_WriteMem(4 bytes @ 0xE0002008) -- CPU_WriteMem(4 bytes @ 0xE000200C) -- CPU_WriteMem(4 bytes @ 0xE0002010) -- CPU_WriteMem(4 bytes @ 0xE0002014) -- CPU_WriteMem(4 bytes @ 0xE0002018) -- CPU_WriteMem(4 bytes @ 0xE000201C) -- CPU_WriteMem(4 bytes @ 0xE0001004) (0003ms, 0619ms total)
T2EC8 001:108 JLINK_IsHalted() -- CPU_ReadMem(2 bytes @ 0x20000000)  returns TRUE (0002ms, 0621ms total)
T2EC8 001:110 JLINK_ReadReg(R15 (PC))  returns 0x20000000 (0000ms, 0619ms total)
T2EC8 001:110 JLINK_ClrBPEx(BPHandle = 0x00000001)  returns 0x00 (0000ms, 0619ms total)
T2EC8 001:110 JLINK_ReadReg(R0)  returns 0x00000000 (0000ms, 0619ms total)
T2EC8 001:110 JLINK_WriteReg(R0, 0x08000000)  returns 0x00 (0000ms, 0619ms total)
T2EC8 001:110 JLINK_WriteReg(R1, 0x007A1200)  returns 0x00 (0000ms, 0619ms total)
T2EC8 001:110 JLINK_WriteReg(R2, 0x00000001)  returns 0x00 (0000ms, 0619ms total)
T2EC8 001:110 JLINK_WriteReg(R3, 0x00000000)  returns 0x00 (0000ms, 0619ms total)
T2EC8 001:111 JLINK_WriteReg(R4, 0x00000000)  returns 0x00 (0000ms, 0620ms total)
T2EC8 001:111 JLINK_WriteReg(R5, 0x00000000)  returns 0x00 (0000ms, 0620ms total)
T2EC8 001:111 JLINK_WriteReg(R6, 0x00000000)  returns 0x00 (0000ms, 0620ms total)
T2EC8 001:111 JLINK_WriteReg(R7, 0x00000000)  returns 0x00 (0000ms, 0620ms total)
T2EC8 001:111 JLINK_WriteReg(R8, 0x00000000)  returns 0x00 (0000ms, 0620ms total)
T2EC8 001:111 JLINK_WriteReg(R9, 0x20000160)  returns 0x00 (0000ms, 0620ms total)
T2EC8 001:111 JLINK_WriteReg(R10, 0x00000000)  returns 0x00 (0000ms, 0620ms total)
T2EC8 001:111 JLINK_WriteReg(R11, 0x00000000)  returns 0x00 (0000ms, 0620ms total)
T2EC8 001:111 JLINK_WriteReg(R12, 0x00000000)  returns 0x00 (0000ms, 0620ms total)
T2EC8 001:111 JLINK_WriteReg(R13 (SP), 0x20000800)  returns 0x00 (0000ms, 0620ms total)
T2EC8 001:111 JLINK_WriteReg(R14, 0x20000001)  returns 0x00 (0000ms, 0620ms total)
T2EC8 001:111 JLINK_WriteReg(R15 (PC), 0x2000007C)  returns 0x00 (0000ms, 0620ms total)
T2EC8 001:111 JLINK_WriteReg(XPSR, 0x01000000)  returns 0x00 (0000ms, 0620ms total)
T2EC8 001:111 JLINK_WriteReg(MSP, 0x20000800)  returns 0x00 (0000ms, 0620ms total)
T2EC8 001:111 JLINK_WriteReg(PSP, 0x20000800)  returns 0x00 (0000ms, 0620ms total)
T2EC8 001:111 JLINK_WriteReg(CFBP, 0x00000000)  returns 0x00 (0000ms, 0620ms total)
T2EC8 001:111 JLINK_SetBPEx(Addr = 0x20000000, Type = 0xFFFFFFF2)  returns 0x00000002 (0000ms, 0620ms total)
T2EC8 001:111 JLINK_Go() (0001ms, 0621ms total)
T2EC8 001:112 JLINK_IsHalted()  returns FALSE (0000ms, 0621ms total)
T2EC8 001:371 JLINK_IsHalted() -- CPU_ReadMem(2 bytes @ 0x20000000)  returns TRUE (0002ms, 0623ms total)
T2EC8 001:373 JLINK_ReadReg(R15 (PC))  returns 0x20000000 (0000ms, 0621ms total)
T2EC8 001:373 JLINK_ClrBPEx(BPHandle = 0x00000002)  returns 0x00 (0000ms, 0621ms total)
T2EC8 001:373 JLINK_ReadReg(R0)  returns 0x00000000 (0000ms, 0621ms total)
T2EC8 001:433 JLINK_WriteReg(R0, 0x00000001)  returns 0x00 (0000ms, 0621ms total)
T2EC8 001:433 JLINK_WriteReg(R1, 0x007A1200)  returns 0x00 (0000ms, 0621ms total)
T2EC8 001:433 JLINK_WriteReg(R2, 0x00000001)  returns 0x00 (0000ms, 0621ms total)
T2EC8 001:433 JLINK_WriteReg(R3, 0x00000000)  returns 0x00 (0000ms, 0621ms total)
T2EC8 001:433 JLINK_WriteReg(R4, 0x00000000)  returns 0x00 (0000ms, 0621ms total)
T2EC8 001:433 JLINK_WriteReg(R5, 0x00000000)  returns 0x00 (0000ms, 0621ms total)
T2EC8 001:433 JLINK_WriteReg(R6, 0x00000000)  returns 0x00 (0000ms, 0621ms total)
T2EC8 001:433 JLINK_WriteReg(R7, 0x00000000)  returns 0x00 (0000ms, 0621ms total)
T2EC8 001:433 JLINK_WriteReg(R8, 0x00000000)  returns 0x00 (0000ms, 0621ms total)
T2EC8 001:433 JLINK_WriteReg(R9, 0x20000160)  returns 0x00 (0000ms, 0621ms total)
T2EC8 001:433 JLINK_WriteReg(R10, 0x00000000)  returns 0x00 (0000ms, 0621ms total)
T2EC8 001:433 JLINK_WriteReg(R11, 0x00000000)  returns 0x00 (0000ms, 0621ms total)
T2EC8 001:433 JLINK_WriteReg(R12, 0x00000000)  returns 0x00 (0001ms, 0622ms total)
T2EC8 001:434 JLINK_WriteReg(R13 (SP), 0x20000800)  returns 0x00 (0000ms, 0622ms total)
T2EC8 001:434 JLINK_WriteReg(R14, 0x20000001)  returns 0x00 (0000ms, 0622ms total)
T2EC8 001:434 JLINK_WriteReg(R15 (PC), 0x2000006A)  returns 0x00 (0000ms, 0622ms total)
T2EC8 001:434 JLINK_WriteReg(XPSR, 0x01000000)  returns 0x00 (0000ms, 0622ms total)
T2EC8 001:434 JLINK_WriteReg(MSP, 0x20000800)  returns 0x00 (0000ms, 0622ms total)
T2EC8 001:434 JLINK_WriteReg(PSP, 0x20000800)  returns 0x00 (0000ms, 0622ms total)
T2EC8 001:434 JLINK_WriteReg(CFBP, 0x00000000)  returns 0x00 (0000ms, 0622ms total)
T2EC8 001:434 JLINK_SetBPEx(Addr = 0x20000000, Type = 0xFFFFFFF2)  returns 0x00000003 (0000ms, 0622ms total)
T2EC8 001:434 JLINK_Go() (0001ms, 0623ms total)
T2EC8 001:435 JLINK_IsHalted() -- CPU_ReadMem(2 bytes @ 0x20000000)  returns TRUE (0003ms, 0626ms total)
T2EC8 001:439 JLINK_ReadReg(R15 (PC))  returns 0x20000000 (0000ms, 0623ms total)
T2EC8 001:439 JLINK_ClrBPEx(BPHandle = 0x00000003)  returns 0x00 (0000ms, 0623ms total)
T2EC8 001:439 JLINK_ReadReg(R0)  returns 0x00000000 (0000ms, 0623ms total)
T2EC8 001:471 JLINK_WriteMem(0x20000000, 0x0164 Bytes, ...) - Data: 00 BE 0A E0 0D 78 2D 06 68 40 08 24 40 00 00 D3 ... -- CPU_WriteMem(356 bytes @ 0x20000000)  returns 0x164 (0002ms, 0625ms total)
T2EC8 001:473 JLINK_WriteReg(R0, 0x08000000)  returns 0x00 (0000ms, 0625ms total)
T2EC8 001:473 JLINK_WriteReg(R1, 0x007A1200)  returns 0x00 (0000ms, 0625ms total)
T2EC8 001:473 JLINK_WriteReg(R2, 0x00000002)  returns 0x00 (0000ms, 0625ms total)
T2EC8 001:473 JLINK_WriteReg(R3, 0x00000000)  returns 0x00 (0000ms, 0625ms total)
T2EC8 001:473 JLINK_WriteReg(R4, 0x00000000)  returns 0x00 (0001ms, 0626ms total)
T2EC8 001:474 JLINK_WriteReg(R5, 0x00000000)  returns 0x00 (0000ms, 0626ms total)
T2EC8 001:474 JLINK_WriteReg(R6, 0x00000000)  returns 0x00 (0000ms, 0626ms total)
T2EC8 001:474 JLINK_WriteReg(R7, 0x00000000)  returns 0x00 (0000ms, 0626ms total)
T2EC8 001:474 JLINK_WriteReg(R8, 0x00000000)  returns 0x00 (0000ms, 0626ms total)
T2EC8 001:474 JLINK_WriteReg(R9, 0x20000160)  returns 0x00 (0000ms, 0626ms total)
T2EC8 001:474 JLINK_WriteReg(R10, 0x00000000)  returns 0x00 (0000ms, 0626ms total)
T2EC8 001:474 JLINK_WriteReg(R11, 0x00000000)  returns 0x00 (0000ms, 0626ms total)
T2EC8 001:474 JLINK_WriteReg(R12, 0x00000000)  returns 0x00 (0001ms, 0627ms total)
T2EC8 001:475 JLINK_WriteReg(R13 (SP), 0x20000800)  returns 0x00 (0000ms, 0627ms total)
T2EC8 001:475 JLINK_WriteReg(R14, 0x20000001)  returns 0x00 (0000ms, 0627ms total)
T2EC8 001:475 JLINK_WriteReg(R15 (PC), 0x20000038)  returns 0x00 (0000ms, 0627ms total)
T2EC8 001:475 JLINK_WriteReg(XPSR, 0x01000000)  returns 0x00 (0000ms, 0627ms total)
T2EC8 001:475 JLINK_WriteReg(MSP, 0x20000800)  returns 0x00 (0000ms, 0627ms total)
T2EC8 001:475 JLINK_WriteReg(PSP, 0x20000800)  returns 0x00 (0000ms, 0627ms total)
T2EC8 001:475 JLINK_WriteReg(CFBP, 0x00000000)  returns 0x00 (0000ms, 0627ms total)
T2EC8 001:475 JLINK_SetBPEx(Addr = 0x20000000, Type = 0xFFFFFFF2) -- CPU_ReadMem(4 bytes @ 0x20000000) -- CPU_WriteMem(4 bytes @ 0x20000000) -- CPU_ReadMem(4 bytes @ 0x20000000) -- CPU_WriteMem(4 bytes @ 0x20000000) -- CPU_ReadMem(2 bytes @ 0x20000000)  returns 0x00000004 (0003ms, 0630ms total)
T2EC8 001:478 JLINK_Go() -- CPU_WriteMem(2 bytes @ 0x20000000) (0001ms, 0631ms total)
T2EC8 001:479 JLINK_IsHalted() -- CPU_ReadMem(2 bytes @ 0x20000000)  returns TRUE (0003ms, 0634ms total)
T2EC8 001:482 JLINK_ReadReg(R15 (PC))  returns 0x20000000 (0000ms, 0631ms total)
T2EC8 001:482 JLINK_ClrBPEx(BPHandle = 0x00000004)  returns 0x00 (0000ms, 0631ms total)
T2EC8 001:482 JLINK_ReadReg(R0)  returns 0x00000000 (0000ms, 0631ms total)
T2EC8 001:483 JLINK_WriteMem(0x20000164, 0x0400 Bytes, ...) - Data: 88 0C 00 20 09 4D 00 08 ED 03 00 08 EF 03 00 08 ... -- CPU_WriteMem(1024 bytes @ 0x20000164)  returns 0x400 (0004ms, 0635ms total)
T2EC8 001:487 JLINK_WriteReg(R0, 0x08000000)  returns 0x00 (0000ms, 0635ms total)
T2EC8 001:487 JLINK_WriteReg(R1, 0x00000400)  returns 0x00 (0000ms, 0635ms total)
T2EC8 001:487 JLINK_WriteReg(R2, 0x20000164)  returns 0x00 (0001ms, 0636ms total)
T2EC8 001:488 JLINK_WriteReg(R3, 0x00000000)  returns 0x00 (0000ms, 0636ms total)
T2EC8 001:488 JLINK_WriteReg(R4, 0x00000000)  returns 0x00 (0000ms, 0636ms total)
T2EC8 001:488 JLINK_WriteReg(R5, 0x00000000)  returns 0x00 (0000ms, 0636ms total)
T2EC8 001:488 JLINK_WriteReg(R6, 0x00000000)  returns 0x00 (0000ms, 0636ms total)
T2EC8 001:488 JLINK_WriteReg(R7, 0x00000000)  returns 0x00 (0000ms, 0636ms total)
T2EC8 001:488 JLINK_WriteReg(R8, 0x00000000)  returns 0x00 (0000ms, 0636ms total)
T2EC8 001:488 JLINK_WriteReg(R9, 0x20000160)  returns 0x00 (0000ms, 0636ms total)
T2EC8 001:488 JLINK_WriteReg(R10, 0x00000000)  returns 0x00 (0000ms, 0636ms total)
T2EC8 001:488 JLINK_WriteReg(R11, 0x00000000)  returns 0x00 (0000ms, 0636ms total)
T2EC8 001:488 JLINK_WriteReg(R12, 0x00000000)  returns 0x00 (0000ms, 0636ms total)
T2EC8 001:488 JLINK_WriteReg(R13 (SP), 0x20000800)  returns 0x00 (0000ms, 0636ms total)
T2EC8 001:488 JLINK_WriteReg(R14, 0x20000001)  returns 0x00 (0001ms, 0637ms total)
T2EC8 001:489 JLINK_WriteReg(R15 (PC), 0x200000F4)  returns 0x00 (0000ms, 0637ms total)
T2EC8 001:489 JLINK_WriteReg(XPSR, 0x01000000)  returns 0x00 (0000ms, 0637ms total)
T2EC8 001:489 JLINK_WriteReg(MSP, 0x20000800)  returns 0x00 (0000ms, 0637ms total)
T2EC8 001:489 JLINK_WriteReg(PSP, 0x20000800)  returns 0x00 (0000ms, 0637ms total)
T2EC8 001:489 JLINK_WriteReg(CFBP, 0x00000000)  returns 0x00 (0000ms, 0637ms total)
T2EC8 001:489 JLINK_SetBPEx(Addr = 0x20000000, Type = 0xFFFFFFF2)  returns 0x00000005 (0000ms, 0637ms total)
T2EC8 001:489 JLINK_Go() (0001ms, 0638ms total)
T2EC8 001:490 JLINK_IsHalted()  returns FALSE (0001ms, 0639ms total)
T2EC8 001:684 JLINK_IsHalted() -- CPU_ReadMem(2 bytes @ 0x20000000)  returns TRUE (0002ms, 0640ms total)
T2EC8 001:686 JLINK_ReadReg(R15 (PC))  returns 0x20000000 (0000ms, 0638ms total)
T2EC8 001:686 JLINK_ClrBPEx(BPHandle = 0x00000005)  returns 0x00 (0000ms, 0638ms total)
T2EC8 001:686 JLINK_ReadReg(R0)  returns 0x00000000 (0000ms, 0638ms total)
T2EC8 001:687 JLINK_WriteMem(0x20000164, 0x0400 Bytes, ...) - Data: 70 47 70 47 70 47 10 B5 40 20 06 F0 15 FB 58 B1 ... -- CPU_WriteMem(1024 bytes @ 0x20000164)  returns 0x400 (0004ms, 0642ms total)
T2EC8 001:691 JLINK_WriteReg(R0, 0x08000400)  returns 0x00 (0000ms, 0642ms total)
T2EC8 001:691 JLINK_WriteReg(R1, 0x00000400)  returns 0x00 (0000ms, 0642ms total)
T2EC8 001:691 JLINK_WriteReg(R2, 0x20000164)  returns 0x00 (0000ms, 0642ms total)
T2EC8 001:691 JLINK_WriteReg(R3, 0x00000000)  returns 0x00 (0000ms, 0642ms total)
T2EC8 001:691 JLINK_WriteReg(R4, 0x00000000)  returns 0x00 (0000ms, 0642ms total)
T2EC8 001:691 JLINK_WriteReg(R5, 0x00000000)  returns 0x00 (0000ms, 0642ms total)
T2EC8 001:691 JLINK_WriteReg(R6, 0x00000000)  returns 0x00 (0000ms, 0642ms total)
T2EC8 001:691 JLINK_WriteReg(R7, 0x00000000)  returns 0x00 (0000ms, 0642ms total)
T2EC8 001:691 JLINK_WriteReg(R8, 0x00000000)  returns 0x00 (0000ms, 0642ms total)
T2EC8 001:691 JLINK_WriteReg(R9, 0x20000160)  returns 0x00 (0000ms, 0642ms total)
T2EC8 001:691 JLINK_WriteReg(R10, 0x00000000)  returns 0x00 (0000ms, 0642ms total)
T2EC8 001:691 JLINK_WriteReg(R11, 0x00000000)  returns 0x00 (0000ms, 0642ms total)
T2EC8 001:691 JLINK_WriteReg(R12, 0x00000000)  returns 0x00 (0000ms, 0642ms total)
T2EC8 001:691 JLINK_WriteReg(R13 (SP), 0x20000800)  returns 0x00 (0000ms, 0642ms total)
T2EC8 001:691 JLINK_WriteReg(R14, 0x20000001)  returns 0x00 (0000ms, 0642ms total)
T2EC8 001:691 JLINK_WriteReg(R15 (PC), 0x200000F4)  returns 0x00 (0000ms, 0642ms total)
T2EC8 001:691 JLINK_WriteReg(XPSR, 0x01000000)  returns 0x00 (0000ms, 0642ms total)
T2EC8 001:691 JLINK_WriteReg(MSP, 0x20000800)  returns 0x00 (0000ms, 0642ms total)
T2EC8 001:691 JLINK_WriteReg(PSP, 0x20000800)  returns 0x00 (0000ms, 0642ms total)
T2EC8 001:691 JLINK_WriteReg(CFBP, 0x00000000)  returns 0x00 (0000ms, 0642ms total)
T2EC8 001:691 JLINK_SetBPEx(Addr = 0x20000000, Type = 0xFFFFFFF2)  returns 0x00000006 (0000ms, 0642ms total)
T2EC8 001:691 JLINK_Go() (0001ms, 0643ms total)
T2EC8 001:692 JLINK_IsHalted()  returns FALSE (0001ms, 0644ms total)
T2EC8 001:731 JLINK_IsHalted() -- CPU_ReadMem(2 bytes @ 0x20000000)  returns TRUE (0002ms, 0645ms total)
T2EC8 001:733 JLINK_ReadReg(R15 (PC))  returns 0x20000000 (0000ms, 0643ms total)
T2EC8 001:733 JLINK_ClrBPEx(BPHandle = 0x00000006)  returns 0x00 (0000ms, 0643ms total)
T2EC8 001:733 JLINK_ReadReg(R0)  returns 0x00000000 (0000ms, 0643ms total)
T2EC8 001:734 JLINK_WriteMem(0x20000164, 0x0400 Bytes, ...) - Data: 20 46 61 1C 8C B2 0D F8 00 20 F5 48 02 78 20 46 ... -- CPU_WriteMem(1024 bytes @ 0x20000164)  returns 0x400 (0004ms, 0647ms total)
T2EC8 001:738 JLINK_WriteReg(R0, 0x08000800)  returns 0x00 (0000ms, 0647ms total)
T2EC8 001:738 JLINK_WriteReg(R1, 0x00000400)  returns 0x00 (0000ms, 0647ms total)
T2EC8 001:738 JLINK_WriteReg(R2, 0x20000164)  returns 0x00 (0000ms, 0647ms total)
T2EC8 001:738 JLINK_WriteReg(R3, 0x00000000)  returns 0x00 (0000ms, 0647ms total)
T2EC8 001:738 JLINK_WriteReg(R4, 0x00000000)  returns 0x00 (0000ms, 0647ms total)
T2EC8 001:738 JLINK_WriteReg(R5, 0x00000000)  returns 0x00 (0000ms, 0647ms total)
T2EC8 001:738 JLINK_WriteReg(R6, 0x00000000)  returns 0x00 (0000ms, 0647ms total)
T2EC8 001:738 JLINK_WriteReg(R7, 0x00000000)  returns 0x00 (0000ms, 0647ms total)
T2EC8 001:738 JLINK_WriteReg(R8, 0x00000000)  returns 0x00 (0000ms, 0647ms total)
T2EC8 001:738 JLINK_WriteReg(R9, 0x20000160)  returns 0x00 (0000ms, 0647ms total)
T2EC8 001:738 JLINK_WriteReg(R10, 0x00000000)  returns 0x00 (0000ms, 0647ms total)
T2EC8 001:738 JLINK_WriteReg(R11, 0x00000000)  returns 0x00 (0000ms, 0647ms total)
T2EC8 001:738 JLINK_WriteReg(R12, 0x00000000)  returns 0x00 (0000ms, 0647ms total)
T2EC8 001:738 JLINK_WriteReg(R13 (SP), 0x20000800)  returns 0x00 (0000ms, 0647ms total)
T2EC8 001:738 JLINK_WriteReg(R14, 0x20000001)  returns 0x00 (0000ms, 0647ms total)
T2EC8 001:738 JLINK_WriteReg(R15 (PC), 0x200000F4)  returns 0x00 (0000ms, 0647ms total)
T2EC8 001:738 JLINK_WriteReg(XPSR, 0x01000000)  returns 0x00 (0000ms, 0647ms total)
T2EC8 001:738 JLINK_WriteReg(MSP, 0x20000800)  returns 0x00 (0000ms, 0647ms total)
T2EC8 001:738 JLINK_WriteReg(PSP, 0x20000800)  returns 0x00 (0000ms, 0647ms total)
T2EC8 001:738 JLINK_WriteReg(CFBP, 0x00000000)  returns 0x00 (0000ms, 0647ms total)
T2EC8 001:738 JLINK_SetBPEx(Addr = 0x20000000, Type = 0xFFFFFFF2)  returns 0x00000007 (0000ms, 0647ms total)
T2EC8 001:738 JLINK_Go() (0001ms, 0648ms total)
T2EC8 001:739 JLINK_IsHalted()  returns FALSE (0000ms, 0648ms total)
T2EC8 001:741 JLINK_IsHalted()  returns FALSE (0000ms, 0648ms total)
T2EC8 001:743 JLINK_IsHalted()  returns FALSE (0000ms, 0648ms total)
T2EC8 001:745 JLINK_IsHalted()  returns FALSE (0000ms, 0648ms total)
T2EC8 001:747 JLINK_IsHalted()  returns FALSE (0000ms, 0648ms total)
T2EC8 001:749 JLINK_IsHalted()  returns FALSE (0000ms, 0648ms total)
T2EC8 001:751 JLINK_IsHalted()  returns FALSE (0000ms, 0648ms total)
T2EC8 001:753 JLINK_IsHalted()  returns FALSE (0000ms, 0648ms total)
T2EC8 001:755 JLINK_IsHalted()  returns FALSE (0000ms, 0648ms total)
T2EC8 001:757 JLINK_IsHalted()  returns FALSE (0000ms, 0648ms total)
T2EC8 001:759 JLINK_IsHalted()  returns FALSE (0000ms, 0648ms total)
T2EC8 001:761 JLINK_IsHalted()  returns FALSE (0000ms, 0648ms total)
T2EC8 001:763 JLINK_IsHalted()  returns FALSE (0000ms, 0648ms total)
T2EC8 001:765 JLINK_IsHalted()  returns FALSE (0000ms, 0648ms total)
T2EC8 001:777 JLINK_IsHalted() -- CPU_ReadMem(2 bytes @ 0x20000000)  returns TRUE (0002ms, 0650ms total)
T2EC8 001:779 JLINK_ReadReg(R15 (PC))  returns 0x20000000 (0000ms, 0648ms total)
T2EC8 001:779 JLINK_ClrBPEx(BPHandle = 0x00000007)  returns 0x00 (0000ms, 0648ms total)
T2EC8 001:779 JLINK_ReadReg(R0)  returns 0x00000000 (0000ms, 0648ms total)
T2EC8 001:780 JLINK_WriteMem(0x20000164, 0x0400 Bytes, ...) - Data: 2C 00 00 20 39 00 00 20 3B 00 00 20 30 00 00 20 ... -- CPU_WriteMem(1024 bytes @ 0x20000164)  returns 0x400 (0004ms, 0652ms total)
T2EC8 001:784 JLINK_WriteReg(R0, 0x08000C00)  returns 0x00 (0000ms, 0652ms total)
T2EC8 001:784 JLINK_WriteReg(R1, 0x00000400)  returns 0x00 (0000ms, 0652ms total)
T2EC8 001:784 JLINK_WriteReg(R2, 0x20000164)  returns 0x00 (0000ms, 0652ms total)
T2EC8 001:784 JLINK_WriteReg(R3, 0x00000000)  returns 0x00 (0001ms, 0653ms total)
T2EC8 001:785 JLINK_WriteReg(R4, 0x00000000)  returns 0x00 (0000ms, 0653ms total)
T2EC8 001:785 JLINK_WriteReg(R5, 0x00000000)  returns 0x00 (0000ms, 0653ms total)
T2EC8 001:785 JLINK_WriteReg(R6, 0x00000000)  returns 0x00 (0000ms, 0653ms total)
T2EC8 001:785 JLINK_WriteReg(R7, 0x00000000)  returns 0x00 (0000ms, 0653ms total)
T2EC8 001:785 JLINK_WriteReg(R8, 0x00000000)  returns 0x00 (0000ms, 0653ms total)
T2EC8 001:785 JLINK_WriteReg(R9, 0x20000160)  returns 0x00 (0000ms, 0653ms total)
T2EC8 001:785 JLINK_WriteReg(R10, 0x00000000)  returns 0x00 (0000ms, 0653ms total)
T2EC8 001:785 JLINK_WriteReg(R11, 0x00000000)  returns 0x00 (0000ms, 0653ms total)
T2EC8 001:785 JLINK_WriteReg(R12, 0x00000000)  returns 0x00 (0000ms, 0653ms total)
T2EC8 001:785 JLINK_WriteReg(R13 (SP), 0x20000800)  returns 0x00 (0000ms, 0653ms total)
T2EC8 001:785 JLINK_WriteReg(R14, 0x20000001)  returns 0x00 (0000ms, 0653ms total)
T2EC8 001:785 JLINK_WriteReg(R15 (PC), 0x200000F4)  returns 0x00 (0000ms, 0653ms total)
T2EC8 001:785 JLINK_WriteReg(XPSR, 0x01000000)  returns 0x00 (0000ms, 0653ms total)
T2EC8 001:785 JLINK_WriteReg(MSP, 0x20000800)  returns 0x00 (0000ms, 0653ms total)
T2EC8 001:785 JLINK_WriteReg(PSP, 0x20000800)  returns 0x00 (0000ms, 0653ms total)
T2EC8 001:785 JLINK_WriteReg(CFBP, 0x00000000)  returns 0x00 (0000ms, 0653ms total)
T2EC8 001:785 JLINK_SetBPEx(Addr = 0x20000000, Type = 0xFFFFFFF2)  returns 0x00000008 (0000ms, 0653ms total)
T2EC8 001:785 JLINK_Go() (0002ms, 0655ms total)
T2EC8 001:787 JLINK_IsHalted()  returns FALSE (0000ms, 0655ms total)
T2EC8 001:789 JLINK_IsHalted()  returns FALSE (0000ms, 0655ms total)
T2EC8 001:791 JLINK_IsHalted()  returns FALSE (0000ms, 0655ms total)
T2EC8 001:793 JLINK_IsHalted()  returns FALSE (0000ms, 0655ms total)
T2EC8 001:795 JLINK_IsHalted()  returns FALSE (0000ms, 0655ms total)
T2EC8 001:797 JLINK_IsHalted()  returns FALSE (0000ms, 0655ms total)
T2EC8 001:807 JLINK_IsHalted()  returns FALSE (0000ms, 0655ms total)
T2EC8 001:809 JLINK_IsHalted()  returns FALSE (0000ms, 0655ms total)
T2EC8 001:811 JLINK_IsHalted()  returns FALSE (0000ms, 0655ms total)
T2EC8 001:813 JLINK_IsHalted()  returns FALSE (0000ms, 0655ms total)
T2EC8 001:815 JLINK_IsHalted()  returns FALSE (0000ms, 0655ms total)
T2EC8 001:817 JLINK_IsHalted()  returns FALSE (0000ms, 0655ms total)
T2EC8 001:819 JLINK_IsHalted() -- CPU_ReadMem(2 bytes @ 0x20000000)  returns TRUE (0002ms, 0657ms total)
T2EC8 001:821 JLINK_ReadReg(R15 (PC))  returns 0x20000000 (0000ms, 0655ms total)
T2EC8 001:821 JLINK_ClrBPEx(BPHandle = 0x00000008)  returns 0x00 (0000ms, 0655ms total)
T2EC8 001:821 JLINK_ReadReg(R0)  returns 0x00000000 (0000ms, 0655ms total)
T2EC8 001:822 JLINK_WriteMem(0x20000164, 0x0400 Bytes, ...) - Data: 07 20 21 46 62 1C 94 B2 01 AA 50 54 88 22 20 46 ... -- CPU_WriteMem(1024 bytes @ 0x20000164)  returns 0x400 (0004ms, 0659ms total)
T2EC8 001:826 JLINK_WriteReg(R0, 0x08001000)  returns 0x00 (0000ms, 0659ms total)
T2EC8 001:826 JLINK_WriteReg(R1, 0x00000400)  returns 0x00 (0000ms, 0659ms total)
T2EC8 001:826 JLINK_WriteReg(R2, 0x20000164)  returns 0x00 (0000ms, 0659ms total)
T2EC8 001:826 JLINK_WriteReg(R3, 0x00000000)  returns 0x00 (0000ms, 0659ms total)
T2EC8 001:826 JLINK_WriteReg(R4, 0x00000000)  returns 0x00 (0000ms, 0659ms total)
T2EC8 001:826 JLINK_WriteReg(R5, 0x00000000)  returns 0x00 (0000ms, 0659ms total)
T2EC8 001:826 JLINK_WriteReg(R6, 0x00000000)  returns 0x00 (0000ms, 0659ms total)
T2EC8 001:826 JLINK_WriteReg(R7, 0x00000000)  returns 0x00 (0000ms, 0659ms total)
T2EC8 001:826 JLINK_WriteReg(R8, 0x00000000)  returns 0x00 (0000ms, 0659ms total)
T2EC8 001:826 JLINK_WriteReg(R9, 0x20000160)  returns 0x00 (0000ms, 0659ms total)
T2EC8 001:826 JLINK_WriteReg(R10, 0x00000000)  returns 0x00 (0000ms, 0659ms total)
T2EC8 001:826 JLINK_WriteReg(R11, 0x00000000)  returns 0x00 (0000ms, 0659ms total)
T2EC8 001:826 JLINK_WriteReg(R12, 0x00000000)  returns 0x00 (0000ms, 0659ms total)
T2EC8 001:826 JLINK_WriteReg(R13 (SP), 0x20000800)  returns 0x00 (0000ms, 0659ms total)
T2EC8 001:826 JLINK_WriteReg(R14, 0x20000001)  returns 0x00 (0000ms, 0659ms total)
T2EC8 001:826 JLINK_WriteReg(R15 (PC), 0x200000F4)  returns 0x00 (0000ms, 0659ms total)
T2EC8 001:826 JLINK_WriteReg(XPSR, 0x01000000)  returns 0x00 (0001ms, 0660ms total)
T2EC8 001:827 JLINK_WriteReg(MSP, 0x20000800)  returns 0x00 (0000ms, 0660ms total)
T2EC8 001:827 JLINK_WriteReg(PSP, 0x20000800)  returns 0x00 (0000ms, 0660ms total)
T2EC8 001:827 JLINK_WriteReg(CFBP, 0x00000000)  returns 0x00 (0000ms, 0660ms total)
T2EC8 001:827 JLINK_SetBPEx(Addr = 0x20000000, Type = 0xFFFFFFF2)  returns 0x00000009 (0000ms, 0660ms total)
T2EC8 001:827 JLINK_Go() (0001ms, 0661ms total)
T2EC8 001:828 JLINK_IsHalted()  returns FALSE (0001ms, 0662ms total)
T2EC8 001:830 JLINK_IsHalted()  returns FALSE (0000ms, 0661ms total)
T2EC8 001:832 JLINK_IsHalted()  returns FALSE (0000ms, 0661ms total)
T2EC8 001:834 JLINK_IsHalted()  returns FALSE (0000ms, 0661ms total)
T2EC8 001:836 JLINK_IsHalted()  returns FALSE (0000ms, 0661ms total)
T2EC8 001:838 JLINK_IsHalted()  returns FALSE (0000ms, 0661ms total)
T2EC8 001:840 JLINK_IsHalted()  returns FALSE (0000ms, 0661ms total)
T2EC8 001:842 JLINK_IsHalted()  returns FALSE (0000ms, 0661ms total)
T2EC8 001:844 JLINK_IsHalted()  returns FALSE (0000ms, 0661ms total)
T2EC8 001:846 JLINK_IsHalted()  returns FALSE (0000ms, 0661ms total)
T2EC8 001:848 JLINK_IsHalted()  returns FALSE (0000ms, 0661ms total)
T2EC8 001:850 JLINK_IsHalted()  returns FALSE (0000ms, 0661ms total)
T2EC8 001:852 JLINK_IsHalted()  returns FALSE (0001ms, 0662ms total)
T2EC8 001:855 JLINK_IsHalted()  returns FALSE (0001ms, 0662ms total)
T2EC8 001:858 JLINK_IsHalted()  returns FALSE (0000ms, 0661ms total)
T2EC8 001:860 JLINK_IsHalted() -- CPU_ReadMem(2 bytes @ 0x20000000)  returns TRUE (0003ms, 0664ms total)
T2EC8 001:863 JLINK_ReadReg(R15 (PC))  returns 0x20000000 (0000ms, 0661ms total)
T2EC8 001:863 JLINK_ClrBPEx(BPHandle = 0x00000009)  returns 0x00 (0000ms, 0661ms total)
T2EC8 001:863 JLINK_ReadReg(R0)  returns 0x00000000 (0000ms, 0661ms total)
T2EC8 001:865 JLINK_WriteMem(0x20000164, 0x0400 Bytes, ...) - Data: 48 5D 03 F0 DB FB 68 1C 85 B2 A5 42 F7 DB 10 21 ... -- CPU_WriteMem(1024 bytes @ 0x20000164)  returns 0x400 (0004ms, 0665ms total)
T2EC8 001:869 JLINK_WriteReg(R0, 0x08001400)  returns 0x00 (0000ms, 0665ms total)
T2EC8 001:869 JLINK_WriteReg(R1, 0x00000400)  returns 0x00 (0000ms, 0665ms total)
T2EC8 001:869 JLINK_WriteReg(R2, 0x20000164)  returns 0x00 (0000ms, 0665ms total)
T2EC8 001:869 JLINK_WriteReg(R3, 0x00000000)  returns 0x00 (0000ms, 0665ms total)
T2EC8 001:869 JLINK_WriteReg(R4, 0x00000000)  returns 0x00 (0001ms, 0666ms total)
T2EC8 001:870 JLINK_WriteReg(R5, 0x00000000)  returns 0x00 (0000ms, 0666ms total)
T2EC8 001:870 JLINK_WriteReg(R6, 0x00000000)  returns 0x00 (0000ms, 0666ms total)
T2EC8 001:870 JLINK_WriteReg(R7, 0x00000000)  returns 0x00 (0000ms, 0666ms total)
T2EC8 001:870 JLINK_WriteReg(R8, 0x00000000)  returns 0x00 (0000ms, 0666ms total)
T2EC8 001:870 JLINK_WriteReg(R9, 0x20000160)  returns 0x00 (0000ms, 0666ms total)
T2EC8 001:870 JLINK_WriteReg(R10, 0x00000000)  returns 0x00 (0000ms, 0666ms total)
T2EC8 001:870 JLINK_WriteReg(R11, 0x00000000)  returns 0x00 (0000ms, 0666ms total)
T2EC8 001:870 JLINK_WriteReg(R12, 0x00000000)  returns 0x00 (0000ms, 0666ms total)
T2EC8 001:870 JLINK_WriteReg(R13 (SP), 0x20000800)  returns 0x00 (0000ms, 0666ms total)
T2EC8 001:870 JLINK_WriteReg(R14, 0x20000001)  returns 0x00 (0000ms, 0666ms total)
T2EC8 001:870 JLINK_WriteReg(R15 (PC), 0x200000F4)  returns 0x00 (0001ms, 0667ms total)
T2EC8 001:871 JLINK_WriteReg(XPSR, 0x01000000)  returns 0x00 (0000ms, 0667ms total)
T2EC8 001:871 JLINK_WriteReg(MSP, 0x20000800)  returns 0x00 (0000ms, 0667ms total)
T2EC8 001:871 JLINK_WriteReg(PSP, 0x20000800)  returns 0x00 (0000ms, 0667ms total)
T2EC8 001:871 JLINK_WriteReg(CFBP, 0x00000000)  returns 0x00 (0000ms, 0667ms total)
T2EC8 001:871 JLINK_SetBPEx(Addr = 0x20000000, Type = 0xFFFFFFF2)  returns 0x0000000A (0000ms, 0667ms total)
T2EC8 001:871 JLINK_Go() (0001ms, 0668ms total)
T2EC8 001:872 JLINK_IsHalted()  returns FALSE (0001ms, 0669ms total)
T2EC8 001:875 JLINK_IsHalted()  returns FALSE (0000ms, 0668ms total)
T2EC8 001:877 JLINK_IsHalted()  returns FALSE (0000ms, 0668ms total)
T2EC8 001:879 JLINK_IsHalted()  returns FALSE (0001ms, 0669ms total)
T2EC8 001:882 JLINK_IsHalted()  returns FALSE (0000ms, 0668ms total)
T2EC8 001:884 JLINK_IsHalted()  returns FALSE (0000ms, 0668ms total)
T2EC8 001:886 JLINK_IsHalted()  returns FALSE (0001ms, 0669ms total)
T2EC8 001:888 JLINK_IsHalted()  returns FALSE (0001ms, 0669ms total)
T2EC8 001:891 JLINK_IsHalted()  returns FALSE (0000ms, 0668ms total)
T2EC8 001:893 JLINK_IsHalted()  returns FALSE (0000ms, 0668ms total)
T2EC8 001:895 JLINK_IsHalted()  returns FALSE (0000ms, 0668ms total)
T2EC8 001:897 JLINK_IsHalted()  returns FALSE (0000ms, 0668ms total)
T2EC8 001:950 JLINK_IsHalted() -- CPU_ReadMem(2 bytes @ 0x20000000)  returns TRUE (0002ms, 0670ms total)
T2EC8 001:952 JLINK_ReadReg(R15 (PC))  returns 0x20000000 (0000ms, 0668ms total)
T2EC8 001:953 JLINK_ClrBPEx(BPHandle = 0x0000000A)  returns 0x00 (0000ms, 0668ms total)
T2EC8 001:953 JLINK_ReadReg(R0)  returns 0x00000000 (0000ms, 0668ms total)
T2EC8 001:954 JLINK_WriteMem(0x20000164, 0x0400 Bytes, ...) - Data: FF 20 EE E7 0C E0 70 1E A0 42 04 D1 00 20 DC 49 ... -- CPU_WriteMem(1024 bytes @ 0x20000164)  returns 0x400 (0004ms, 0672ms total)
T2EC8 001:958 JLINK_WriteReg(R0, 0x08001800)  returns 0x00 (0000ms, 0672ms total)
T2EC8 001:958 JLINK_WriteReg(R1, 0x00000400)  returns 0x00 (0000ms, 0672ms total)
T2EC8 001:958 JLINK_WriteReg(R2, 0x20000164)  returns 0x00 (0000ms, 0672ms total)
T2EC8 001:958 JLINK_WriteReg(R3, 0x00000000)  returns 0x00 (0000ms, 0672ms total)
T2EC8 001:958 JLINK_WriteReg(R4, 0x00000000)  returns 0x00 (0000ms, 0672ms total)
T2EC8 001:958 JLINK_WriteReg(R5, 0x00000000)  returns 0x00 (0000ms, 0672ms total)
T2EC8 001:958 JLINK_WriteReg(R6, 0x00000000)  returns 0x00 (0000ms, 0672ms total)
T2EC8 001:958 JLINK_WriteReg(R7, 0x00000000)  returns 0x00 (0000ms, 0672ms total)
T2EC8 001:958 JLINK_WriteReg(R8, 0x00000000)  returns 0x00 (0000ms, 0672ms total)
T2EC8 001:958 JLINK_WriteReg(R9, 0x20000160)  returns 0x00 (0000ms, 0672ms total)
T2EC8 001:958 JLINK_WriteReg(R10, 0x00000000)  returns 0x00 (0000ms, 0672ms total)
T2EC8 001:958 JLINK_WriteReg(R11, 0x00000000)  returns 0x00 (0000ms, 0672ms total)
T2EC8 001:958 JLINK_WriteReg(R12, 0x00000000)  returns 0x00 (0000ms, 0672ms total)
T2EC8 001:958 JLINK_WriteReg(R13 (SP), 0x20000800)  returns 0x00 (0000ms, 0672ms total)
T2EC8 001:958 JLINK_WriteReg(R14, 0x20000001)  returns 0x00 (0000ms, 0672ms total)
T2EC8 001:958 JLINK_WriteReg(R15 (PC), 0x200000F4)  returns 0x00 (0001ms, 0673ms total)
T2EC8 001:959 JLINK_WriteReg(XPSR, 0x01000000)  returns 0x00 (0000ms, 0673ms total)
T2EC8 001:959 JLINK_WriteReg(MSP, 0x20000800)  returns 0x00 (0000ms, 0673ms total)
T2EC8 001:959 JLINK_WriteReg(PSP, 0x20000800)  returns 0x00 (0000ms, 0673ms total)
T2EC8 001:959 JLINK_WriteReg(CFBP, 0x00000000)  returns 0x00 (0000ms, 0673ms total)
T2EC8 001:959 JLINK_SetBPEx(Addr = 0x20000000, Type = 0xFFFFFFF2)  returns 0x0000000B (0000ms, 0673ms total)
T2EC8 001:959 JLINK_Go() (0001ms, 0674ms total)
T2EC8 001:960 JLINK_IsHalted()  returns FALSE (0001ms, 0675ms total)
T2EC8 001:963 JLINK_IsHalted()  returns FALSE (0000ms, 0674ms total)
T2EC8 001:965 JLINK_IsHalted()  returns FALSE (0000ms, 0674ms total)
T2EC8 001:967 JLINK_IsHalted()  returns FALSE (0000ms, 0674ms total)
T2EC8 001:969 JLINK_IsHalted()  returns FALSE (0000ms, 0674ms total)
T2EC8 001:971 JLINK_IsHalted()  returns FALSE (0000ms, 0674ms total)
T2EC8 001:973 JLINK_IsHalted()  returns FALSE (0000ms, 0674ms total)
T2EC8 001:975 JLINK_IsHalted()  returns FALSE (0000ms, 0674ms total)
T2EC8 001:977 JLINK_IsHalted()  returns FALSE (0000ms, 0674ms total)
T2EC8 001:979 JLINK_IsHalted()  returns FALSE (0000ms, 0674ms total)
T2EC8 001:981 JLINK_IsHalted()  returns FALSE (0000ms, 0674ms total)
T2EC8 001:983 JLINK_IsHalted()  returns FALSE (0000ms, 0674ms total)
T2EC8 001:985 JLINK_IsHalted()  returns FALSE (0000ms, 0674ms total)
T2EC8 001:987 JLINK_IsHalted()  returns FALSE (0000ms, 0674ms total)
T2EC8 001:989 JLINK_IsHalted()  returns FALSE (0000ms, 0674ms total)
T2EC8 001:991 JLINK_IsHalted() -- CPU_ReadMem(2 bytes @ 0x20000000)  returns TRUE (0003ms, 0677ms total)
T2EC8 001:994 JLINK_ReadReg(R15 (PC))  returns 0x20000000 (0000ms, 0674ms total)
T2EC8 001:994 JLINK_ClrBPEx(BPHandle = 0x0000000B)  returns 0x00 (0000ms, 0674ms total)
T2EC8 001:994 JLINK_ReadReg(R0)  returns 0x00000000 (0000ms, 0674ms total)
T2EC8 001:996 JLINK_WriteMem(0x20000164, 0x0400 Bytes, ...) - Data: EF E3 F4 E2 AC E2 FF 49 08 60 FF 49 08 70 FF 49 ... -- CPU_WriteMem(1024 bytes @ 0x20000164)  returns 0x400 (0004ms, 0678ms total)
T2EC8 002:000 JLINK_WriteReg(R0, 0x08001C00)  returns 0x00 (0000ms, 0678ms total)
T2EC8 002:000 JLINK_WriteReg(R1, 0x00000400)  returns 0x00 (0000ms, 0678ms total)
T2EC8 002:000 JLINK_WriteReg(R2, 0x20000164)  returns 0x00 (0000ms, 0678ms total)
T2EC8 002:000 JLINK_WriteReg(R3, 0x00000000)  returns 0x00 (0000ms, 0678ms total)
T2EC8 002:000 JLINK_WriteReg(R4, 0x00000000)  returns 0x00 (0001ms, 0679ms total)
T2EC8 002:001 JLINK_WriteReg(R5, 0x00000000)  returns 0x00 (0000ms, 0679ms total)
T2EC8 002:001 JLINK_WriteReg(R6, 0x00000000)  returns 0x00 (0000ms, 0679ms total)
T2EC8 002:001 JLINK_WriteReg(R7, 0x00000000)  returns 0x00 (0000ms, 0679ms total)
T2EC8 002:001 JLINK_WriteReg(R8, 0x00000000)  returns 0x00 (0000ms, 0679ms total)
T2EC8 002:001 JLINK_WriteReg(R9, 0x20000160)  returns 0x00 (0000ms, 0679ms total)
T2EC8 002:001 JLINK_WriteReg(R10, 0x00000000)  returns 0x00 (0000ms, 0679ms total)
T2EC8 002:001 JLINK_WriteReg(R11, 0x00000000)  returns 0x00 (0000ms, 0679ms total)
T2EC8 002:001 JLINK_WriteReg(R12, 0x00000000)  returns 0x00 (0001ms, 0680ms total)
T2EC8 002:002 JLINK_WriteReg(R13 (SP), 0x20000800)  returns 0x00 (0000ms, 0680ms total)
T2EC8 002:002 JLINK_WriteReg(R14, 0x20000001)  returns 0x00 (0000ms, 0680ms total)
T2EC8 002:002 JLINK_WriteReg(R15 (PC), 0x200000F4)  returns 0x00 (0000ms, 0680ms total)
T2EC8 002:002 JLINK_WriteReg(XPSR, 0x01000000)  returns 0x00 (0000ms, 0680ms total)
T2EC8 002:002 JLINK_WriteReg(MSP, 0x20000800)  returns 0x00 (0000ms, 0680ms total)
T2EC8 002:002 JLINK_WriteReg(PSP, 0x20000800)  returns 0x00 (0000ms, 0680ms total)
T2EC8 002:002 JLINK_WriteReg(CFBP, 0x00000000)  returns 0x00 (0000ms, 0680ms total)
T2EC8 002:002 JLINK_SetBPEx(Addr = 0x20000000, Type = 0xFFFFFFF2)  returns 0x0000000C (0000ms, 0680ms total)
T2EC8 002:002 JLINK_Go() (0002ms, 0682ms total)
T2EC8 002:004 JLINK_IsHalted()  returns FALSE (0000ms, 0682ms total)
T2EC8 002:006 JLINK_IsHalted()  returns FALSE (0000ms, 0682ms total)
T2EC8 002:008 JLINK_IsHalted()  returns FALSE (0000ms, 0682ms total)
T2EC8 002:010 JLINK_IsHalted()  returns FALSE (0000ms, 0682ms total)
T2EC8 002:012 JLINK_IsHalted()  returns FALSE (0001ms, 0683ms total)
T2EC8 002:014 JLINK_IsHalted()  returns FALSE (0000ms, 0682ms total)
T2EC8 002:016 JLINK_IsHalted()  returns FALSE (0000ms, 0682ms total)
T2EC8 002:018 JLINK_IsHalted()  returns FALSE (0000ms, 0682ms total)
T2EC8 002:036 JLINK_IsHalted() -- CPU_ReadMem(2 bytes @ 0x20000000)  returns TRUE (0002ms, 0684ms total)
T2EC8 002:038 JLINK_ReadReg(R15 (PC))  returns 0x20000000 (0000ms, 0682ms total)
T2EC8 002:039 JLINK_ClrBPEx(BPHandle = 0x0000000C)  returns 0x00 (0000ms, 0683ms total)
T2EC8 002:039 JLINK_ReadReg(R0)  returns 0x00000000 (0000ms, 0683ms total)
T2EC8 002:040 JLINK_WriteMem(0x20000164, 0x0400 Bytes, ...) - Data: 8C B2 1B E0 34 00 00 20 11 00 00 20 46 00 00 20 ... -- CPU_WriteMem(1024 bytes @ 0x20000164)  returns 0x400 (0005ms, 0688ms total)
T2EC8 002:045 JLINK_WriteReg(R0, 0x08002000)  returns 0x00 (0000ms, 0688ms total)
T2EC8 002:045 JLINK_WriteReg(R1, 0x00000400)  returns 0x00 (0000ms, 0688ms total)
T2EC8 002:045 JLINK_WriteReg(R2, 0x20000164)  returns 0x00 (0000ms, 0688ms total)
T2EC8 002:045 JLINK_WriteReg(R3, 0x00000000)  returns 0x00 (0000ms, 0688ms total)
T2EC8 002:045 JLINK_WriteReg(R4, 0x00000000)  returns 0x00 (0000ms, 0688ms total)
T2EC8 002:045 JLINK_WriteReg(R5, 0x00000000)  returns 0x00 (0000ms, 0688ms total)
T2EC8 002:045 JLINK_WriteReg(R6, 0x00000000)  returns 0x00 (0000ms, 0688ms total)
T2EC8 002:045 JLINK_WriteReg(R7, 0x00000000)  returns 0x00 (0000ms, 0688ms total)
T2EC8 002:045 JLINK_WriteReg(R8, 0x00000000)  returns 0x00 (0000ms, 0688ms total)
T2EC8 002:045 JLINK_WriteReg(R9, 0x20000160)  returns 0x00 (0000ms, 0688ms total)
T2EC8 002:045 JLINK_WriteReg(R10, 0x00000000)  returns 0x00 (0000ms, 0688ms total)
T2EC8 002:045 JLINK_WriteReg(R11, 0x00000000)  returns 0x00 (0000ms, 0688ms total)
T2EC8 002:045 JLINK_WriteReg(R12, 0x00000000)  returns 0x00 (0000ms, 0688ms total)
T2EC8 002:045 JLINK_WriteReg(R13 (SP), 0x20000800)  returns 0x00 (0000ms, 0688ms total)
T2EC8 002:045 JLINK_WriteReg(R14, 0x20000001)  returns 0x00 (0000ms, 0688ms total)
T2EC8 002:045 JLINK_WriteReg(R15 (PC), 0x200000F4)  returns 0x00 (0000ms, 0688ms total)
T2EC8 002:045 JLINK_WriteReg(XPSR, 0x01000000)  returns 0x00 (0000ms, 0688ms total)
T2EC8 002:045 JLINK_WriteReg(MSP, 0x20000800)  returns 0x00 (0000ms, 0688ms total)
T2EC8 002:045 JLINK_WriteReg(PSP, 0x20000800)  returns 0x00 (0000ms, 0688ms total)
T2EC8 002:045 JLINK_WriteReg(CFBP, 0x00000000)  returns 0x00 (0001ms, 0689ms total)
T2EC8 002:046 JLINK_SetBPEx(Addr = 0x20000000, Type = 0xFFFFFFF2)  returns 0x0000000D (0000ms, 0689ms total)
T2EC8 002:046 JLINK_Go() (0001ms, 0690ms total)
T2EC8 002:047 JLINK_IsHalted()  returns FALSE (0000ms, 0690ms total)
T2EC8 002:049 JLINK_IsHalted()  returns FALSE (0000ms, 0690ms total)
T2EC8 002:051 JLINK_IsHalted()  returns FALSE (0000ms, 0690ms total)
T2EC8 002:054 JLINK_IsHalted()  returns FALSE (0000ms, 0690ms total)
T2EC8 002:056 JLINK_IsHalted()  returns FALSE (0000ms, 0690ms total)
T2EC8 002:057 JLINK_IsHalted()  returns FALSE (0000ms, 0690ms total)
T2EC8 002:060 JLINK_IsHalted()  returns FALSE (0000ms, 0690ms total)
T2EC8 002:062 JLINK_IsHalted()  returns FALSE (0000ms, 0690ms total)
T2EC8 002:064 JLINK_IsHalted()  returns FALSE (0000ms, 0690ms total)
T2EC8 002:066 JLINK_IsHalted()  returns FALSE (0000ms, 0690ms total)
T2EC8 002:068 JLINK_IsHalted()  returns FALSE (0000ms, 0690ms total)
T2EC8 002:070 JLINK_IsHalted()  returns FALSE (0000ms, 0690ms total)
T2EC8 002:072 JLINK_IsHalted()  returns FALSE (0000ms, 0690ms total)
T2EC8 002:074 JLINK_IsHalted()  returns FALSE (0000ms, 0690ms total)
T2EC8 002:076 JLINK_IsHalted()  returns FALSE (0000ms, 0690ms total)
T2EC8 002:079 JLINK_IsHalted() -- CPU_ReadMem(2 bytes @ 0x20000000)  returns TRUE (0002ms, 0692ms total)
T2EC8 002:081 JLINK_ReadReg(R15 (PC))  returns 0x20000000 (0000ms, 0690ms total)
T2EC8 002:081 JLINK_ClrBPEx(BPHandle = 0x0000000D)  returns 0x00 (0000ms, 0690ms total)
T2EC8 002:081 JLINK_ReadReg(R0)  returns 0x00000000 (0000ms, 0690ms total)
T2EC8 002:082 JLINK_WriteMem(0x20000164, 0x0400 Bytes, ...) - Data: 20 46 61 1C 8C B2 06 A9 0A 54 09 48 02 78 20 46 ... -- CPU_WriteMem(1024 bytes @ 0x20000164)  returns 0x400 (0005ms, 0695ms total)
T2EC8 002:087 JLINK_WriteReg(R0, 0x08002400)  returns 0x00 (0000ms, 0695ms total)
T2EC8 002:087 JLINK_WriteReg(R1, 0x00000400)  returns 0x00 (0000ms, 0695ms total)
T2EC8 002:087 JLINK_WriteReg(R2, 0x20000164)  returns 0x00 (0000ms, 0695ms total)
T2EC8 002:087 JLINK_WriteReg(R3, 0x00000000)  returns 0x00 (0000ms, 0695ms total)
T2EC8 002:087 JLINK_WriteReg(R4, 0x00000000)  returns 0x00 (0000ms, 0695ms total)
T2EC8 002:087 JLINK_WriteReg(R5, 0x00000000)  returns 0x00 (0000ms, 0695ms total)
T2EC8 002:087 JLINK_WriteReg(R6, 0x00000000)  returns 0x00 (0000ms, 0695ms total)
T2EC8 002:087 JLINK_WriteReg(R7, 0x00000000)  returns 0x00 (0000ms, 0695ms total)
T2EC8 002:087 JLINK_WriteReg(R8, 0x00000000)  returns 0x00 (0000ms, 0695ms total)
T2EC8 002:087 JLINK_WriteReg(R9, 0x20000160)  returns 0x00 (0000ms, 0695ms total)
T2EC8 002:087 JLINK_WriteReg(R10, 0x00000000)  returns 0x00 (0000ms, 0695ms total)
T2EC8 002:087 JLINK_WriteReg(R11, 0x00000000)  returns 0x00 (0000ms, 0695ms total)
T2EC8 002:087 JLINK_WriteReg(R12, 0x00000000)  returns 0x00 (0000ms, 0695ms total)
T2EC8 002:087 JLINK_WriteReg(R13 (SP), 0x20000800)  returns 0x00 (0000ms, 0695ms total)
T2EC8 002:087 JLINK_WriteReg(R14, 0x20000001)  returns 0x00 (0000ms, 0695ms total)
T2EC8 002:087 JLINK_WriteReg(R15 (PC), 0x200000F4)  returns 0x00 (0000ms, 0695ms total)
T2EC8 002:087 JLINK_WriteReg(XPSR, 0x01000000)  returns 0x00 (0000ms, 0695ms total)
T2EC8 002:087 JLINK_WriteReg(MSP, 0x20000800)  returns 0x00 (0000ms, 0695ms total)
T2EC8 002:087 JLINK_WriteReg(PSP, 0x20000800)  returns 0x00 (0000ms, 0695ms total)
T2EC8 002:087 JLINK_WriteReg(CFBP, 0x00000000)  returns 0x00 (0000ms, 0695ms total)
T2EC8 002:087 JLINK_SetBPEx(Addr = 0x20000000, Type = 0xFFFFFFF2)  returns 0x0000000E (0000ms, 0695ms total)
T2EC8 002:087 JLINK_Go() (0002ms, 0697ms total)
T2EC8 002:089 JLINK_IsHalted()  returns FALSE (0000ms, 0697ms total)
T2EC8 002:092 JLINK_IsHalted()  returns FALSE (0000ms, 0697ms total)
T2EC8 002:094 JLINK_IsHalted()  returns FALSE (0000ms, 0697ms total)
T2EC8 002:095 JLINK_IsHalted()  returns FALSE (0000ms, 0697ms total)
T2EC8 002:097 JLINK_IsHalted()  returns FALSE (0000ms, 0697ms total)
T2EC8 002:099 JLINK_IsHalted()  returns FALSE (0000ms, 0697ms total)
T2EC8 002:102 JLINK_IsHalted()  returns FALSE (0000ms, 0697ms total)
T2EC8 002:104 JLINK_IsHalted()  returns FALSE (0000ms, 0697ms total)
T2EC8 002:107 JLINK_IsHalted()  returns FALSE (0000ms, 0697ms total)
T2EC8 002:109 JLINK_IsHalted()  returns FALSE (0000ms, 0697ms total)
T2EC8 002:111 JLINK_IsHalted()  returns FALSE (0000ms, 0697ms total)
T2EC8 002:113 JLINK_IsHalted()  returns FALSE (0000ms, 0697ms total)
T2EC8 002:115 JLINK_IsHalted()  returns FALSE (0000ms, 0697ms total)
T2EC8 002:117 JLINK_IsHalted()  returns FALSE (0000ms, 0697ms total)
T2EC8 002:119 JLINK_IsHalted()  returns FALSE (0000ms, 0697ms total)
T2EC8 002:121 JLINK_IsHalted() -- CPU_ReadMem(2 bytes @ 0x20000000)  returns TRUE (0003ms, 0700ms total)
T2EC8 002:124 JLINK_ReadReg(R15 (PC))  returns 0x20000000 (0000ms, 0697ms total)
T2EC8 002:124 JLINK_ClrBPEx(BPHandle = 0x0000000E)  returns 0x00 (0000ms, 0697ms total)
T2EC8 002:124 JLINK_ReadReg(R0)  returns 0x00000000 (0000ms, 0697ms total)
T2EC8 002:125 JLINK_WriteMem(0x20000164, 0x0400 Bytes, ...) - Data: 18 20 8D F8 05 00 30 20 8D F8 06 00 00 20 8D F8 ... -- CPU_WriteMem(1024 bytes @ 0x20000164)  returns 0x400 (0004ms, 0701ms total)
T2EC8 002:129 JLINK_WriteReg(R0, 0x08002800)  returns 0x00 (0000ms, 0701ms total)
T2EC8 002:129 JLINK_WriteReg(R1, 0x00000400)  returns 0x00 (0000ms, 0701ms total)
T2EC8 002:129 JLINK_WriteReg(R2, 0x20000164)  returns 0x00 (0000ms, 0701ms total)
T2EC8 002:129 JLINK_WriteReg(R3, 0x00000000)  returns 0x00 (0000ms, 0701ms total)
T2EC8 002:129 JLINK_WriteReg(R4, 0x00000000)  returns 0x00 (0000ms, 0701ms total)
T2EC8 002:129 JLINK_WriteReg(R5, 0x00000000)  returns 0x00 (0001ms, 0702ms total)
T2EC8 002:130 JLINK_WriteReg(R6, 0x00000000)  returns 0x00 (0000ms, 0702ms total)
T2EC8 002:130 JLINK_WriteReg(R7, 0x00000000)  returns 0x00 (0000ms, 0702ms total)
T2EC8 002:130 JLINK_WriteReg(R8, 0x00000000)  returns 0x00 (0000ms, 0702ms total)
T2EC8 002:130 JLINK_WriteReg(R9, 0x20000160)  returns 0x00 (0000ms, 0702ms total)
T2EC8 002:130 JLINK_WriteReg(R10, 0x00000000)  returns 0x00 (0000ms, 0702ms total)
T2EC8 002:130 JLINK_WriteReg(R11, 0x00000000)  returns 0x00 (0000ms, 0702ms total)
